Time [s], Analyzer Name, Decoded Protocol Result
0.066077000000000,Async Serial,0x00
0.066337125000000,Async Serial,0x9E
0.066857250000000,Async Serial,0x00
0.067117250000000,Async Serial,0x9B
0.067637500000000,Async Serial,0x00
0.067897500000000,Async Serial,0x9C
0.068417625000000,Async Serial,0x00
0.068677750000000,Async Serial,0xA3
0.069275875000000,Async Serial,0x00
0.069536000000000,Async Serial,0x93
0.070082125000000,Async Serial,0x00
0.070342250000000,Async Serial,0x96
0.070836375000000,Async Serial,0x00
0.071096500000000,Async Serial,0x9E
0.071616625000000,Async Serial,0x00
0.071876625000000,Async Serial,0x97
0.072396875000000,Async Serial,0x00
0.072656875000000,Async Serial,0x9D
0.073151000000000,Async Serial,0x00
0.073411125000000,Async Serial,0x9E
0.073931250000000,Async Serial,0x00
0.074191375000000,Async Serial,0xA6
0.074711500000000,Async Serial,0x00
0.074971625000000,Async Serial,0x9E
0.075491750000000,Async Serial,0x00
0.075751750000000,Async Serial,0xA3
0.076298000000000,Async Serial,0x00
0.076558000000000,Async Serial,0x9B
0.077130250000000,Async Serial,0x00
0.077390250000000,Async Serial,0x9F
0.077910375000000,Async Serial,0x00
0.078170500000000,Async Serial,0x9D
0.078664625000000,Async Serial,0x00
0.078924750000000,Async Serial,0x9F
0.079418875000000,Async Serial,0x00
0.079678875000000,Async Serial,0xA7
0.080303125000000,Async Serial,0x00
0.080563125000000,Async Serial,0x9C
0.081083375000000,Async Serial,0x00
0.081343375000000,Async Serial,0x9A
0.081863500000000,Async Serial,0x00
0.082123625000000,Async Serial,0xA0
0.082669750000000,Async Serial,0x00
0.082929875000000,Async Serial,0x9B
0.083450000000000,Async Serial,0x00
0.083710125000000,Async Serial,0x9D
0.084412250000000,Async Serial,0x00
0.084672375000000,Async Serial,0x9B
0.085166500000000,Async Serial,0x00
0.085426625000000,Async Serial,0x9E
0.085998750000000,Async Serial,0x00
0.086258875000000,Async Serial,0x9A
0.086779000000000,Async Serial,0x00
0.087039000000000,Async Serial,0x9E
0.087585250000000,Async Serial,0x00
0.087845250000000,Async Serial,0x9A
0.088365375000000,Async Serial,0x00
0.088625500000000,Async Serial,0xA2
0.089145625000000,Async Serial,0x00
0.089405750000000,Async Serial,0x96
0.089899875000000,Async Serial,0x00
0.090160000000000,Async Serial,0xA2
0.090706125000000,Async Serial,0x00
0.090966250000000,Async Serial,0x9B
0.091512375000000,Async Serial,0x00
0.091772375000000,Async Serial,0x9F
0.092292625000000,Async Serial,0x00
0.092552625000000,Async Serial,0xA1
0.093150875000000,Async Serial,0x00
0.093410875000000,Async Serial,0x9C
0.093983000000000,Async Serial,0x00
0.094243125000000,Async Serial,0x9B
0.094841250000000,Async Serial,0x00
0.095101375000000,Async Serial,0x9B
0.095777625000000,Async Serial,0x00
0.096037625000000,Async Serial,0x99
0.096557750000000,Async Serial,0x00
0.096817875000000,Async Serial,0xA4
0.097338000000000,Async Serial,0x00
0.097598125000000,Async Serial,0x9F
0.098144250000000,Async Serial,0x00
0.098404375000000,Async Serial,0x9C
0.098898500000000,Async Serial,0x00
0.099158500000000,Async Serial,0x9A
0.099678750000000,Async Serial,0x00
0.099938750000000,Async Serial,0x9F
0.100537000000000,Async Serial,0x00
0.100797000000000,Async Serial,0x9F
0.101343250000000,Async Serial,0x00
0.101603250000000,Async Serial,0x9C
0.102279500000000,Async Serial,0x00
0.102539500000000,Async Serial,0x9C
0.103059625000000,Async Serial,0x00
0.103319750000000,Async Serial,0xA0
0.103813875000000,Async Serial,0x00
0.104074000000000,Async Serial,0xA1
0.104646125000000,Async Serial,0x00
0.104906250000000,Async Serial,0xA0
0.105426375000000,Async Serial,0x00
0.105686500000000,Async Serial,0xA4
0.106180625000000,Async Serial,0x00
0.106440625000000,Async Serial,0x9B
0.106960750000000,Async Serial,0x00
0.107220875000000,Async Serial,0x9E
0.107767000000000,Async Serial,0x00
0.108027125000000,Async Serial,0x9D
0.108547250000000,Async Serial,0x00
0.108807375000000,Async Serial,0x9D
0.109327500000000,Async Serial,0x00
0.109587625000000,Async Serial,0xA1
0.110159750000000,Async Serial,0x00
0.110419750000000,Async Serial,0x9A
0.110992000000000,Async Serial,0x00
0.111252000000000,Async Serial,0xA2
0.111746250000000,Async Serial,0x00
0.112006250000000,Async Serial,0x9C
0.112552375000000,Async Serial,0x00
0.112812500000000,Async Serial,0xA4
0.113410625000000,Async Serial,0x00
0.113670750000000,Async Serial,0xB3
0.114216875000000,Async Serial,0x00
0.114477000000000,Async Serial,0xA9
0.114971125000000,Async Serial,0x00
0.115231250000000,Async Serial,0xA2
0.115777375000000,Async Serial,0x00
0.116037375000000,Async Serial,0xAA
0.116609625000000,Async Serial,0x00
0.116869625000000,Async Serial,0xB0
0.117363875000000,Async Serial,0x00
0.117623875000000,Async Serial,0xA2
0.118144000000000,Async Serial,0x00
0.118404125000000,Async Serial,0xA7
0.119028250000000,Async Serial,0x00
0.119288375000000,Async Serial,0xA6
0.119808500000000,Async Serial,0x00
0.120068625000000,Async Serial,0x9B
0.120562750000000,Async Serial,0x00
0.120822875000000,Async Serial,0x9D
0.121343000000000,Async Serial,0x00
0.121603000000000,Async Serial,0x99
0.122097250000000,Async Serial,0x00
0.122357250000000,Async Serial,0x9F
0.122903375000000,Async Serial,0x00
0.123163500000000,Async Serial,0x97
0.123683625000000,Async Serial,0x00
0.123943750000000,Async Serial,0x9B
0.124489875000000,Async Serial,0x00
0.124750000000000,Async Serial,0x9E
0.125296125000000,Async Serial,0x00
0.125556250000000,Async Serial,0xA6
0.126206375000000,Async Serial,0x00
0.126466500000000,Async Serial,0xA2
0.126986625000000,Async Serial,0x00
0.127246625000000,Async Serial,0x9F
0.127740875000000,Async Serial,0x00
0.128000875000000,Async Serial,0x9E
0.128521000000000,Async Serial,0x00
0.128781125000000,Async Serial,0x9E
0.129353250000000,Async Serial,0x00
0.129613375000000,Async Serial,0x9A
0.130133500000000,Async Serial,0x00
0.130393625000000,Async Serial,0xA2
0.131017750000000,Async Serial,0x00
0.131277875000000,Async Serial,0x9D
0.131798000000000,Async Serial,0x00
0.132058125000000,Async Serial,0x99
0.132578250000000,Async Serial,0x00
0.132838250000000,Async Serial,0xA0
0.133384500000000,Async Serial,0x00
0.133644500000000,Async Serial,0xA2
0.134164625000000,Async Serial,0x00
0.134424750000000,Async Serial,0xA2
0.134944875000000,Async Serial,0x00
0.135205000000000,Async Serial,0x9C
0.135829125000000,Async Serial,0x00
0.136089250000000,Async Serial,0xA5
0.136609375000000,Async Serial,0x00
0.136869500000000,Async Serial,0xA3
0.137623625000000,Async Serial,0x00
0.137883750000000,Async Serial,0x9D
0.138403875000000,Async Serial,0x00
0.138664000000000,Async Serial,0xA0
0.139184125000000,Async Serial,0x00
0.139444250000000,Async Serial,0xA1
0.139990375000000,Async Serial,0x00
0.140250375000000,Async Serial,0xA3
0.140770625000000,Async Serial,0x00
0.141030625000000,Async Serial,0xA3
0.141628875000000,Async Serial,0x00
0.141888875000000,Async Serial,0x98
0.142435125000000,Async Serial,0x00
0.142695125000000,Async Serial,0xA3
0.143345375000000,Async Serial,0x00
0.143605375000000,Async Serial,0xA4
0.144203625000000,Async Serial,0x00
0.144463625000000,Async Serial,0xA1
0.145061875000000,Async Serial,0x00
0.145321875000000,Async Serial,0x9E
0.145816000000000,Async Serial,0x00
0.146076125000000,Async Serial,0x9F
0.146648250000000,Async Serial,0x00
0.146908375000000,Async Serial,0xA3
0.147402500000000,Async Serial,0x00
0.147662625000000,Async Serial,0xA1
0.148208750000000,Async Serial,0x00
0.148468875000000,Async Serial,0xA0
0.148989000000000,Async Serial,0x00
0.149249000000000,Async Serial,0xA3
0.149743125000000,Async Serial,0x00
0.150003250000000,Async Serial,0xA6
0.150497375000000,Async Serial,0x00
0.150757500000000,Async Serial,0xA4
0.151251625000000,Async Serial,0x00
0.151511750000000,Async Serial,0x9B
0.152109875000000,Async Serial,0x00
0.152370000000000,Async Serial,0xA5
0.153020125000000,Async Serial,0x00
0.153280250000000,Async Serial,0x9E
0.153800375000000,Async Serial,0x00
0.154060375000000,Async Serial,0xA0
0.154580625000000,Async Serial,0x00
0.154840625000000,Async Serial,0xA0
0.155464875000000,Async Serial,0x00
0.155724875000000,Async Serial,0xA7
0.156271125000000,Async Serial,0x00
0.156531125000000,Async Serial,0xA4
0.157103250000000,Async Serial,0x00
0.157363375000000,Async Serial,0xA8
0.157883500000000,Async Serial,0x00
0.158143625000000,Async Serial,0xAC
0.158741750000000,Async Serial,0x00
0.159001875000000,Async Serial,0xA9
0.159574000000000,Async Serial,0x00
0.159834125000000,Async Serial,0xA1
0.160406250000000,Async Serial,0x00
0.160666375000000,Async Serial,0xA4
0.161160500000000,Async Serial,0x00
0.161420500000000,Async Serial,0xA5
0.161966750000000,Async Serial,0x00
0.162226750000000,Async Serial,0xA4
0.162799000000000,Async Serial,0x00
0.163059000000000,Async Serial,0xA5
0.163605250000000,Async Serial,0x00
0.163865250000000,Async Serial,0x9F
0.164463375000000,Async Serial,0x00
0.164723500000000,Async Serial,0xAC
0.165269625000000,Async Serial,0x00
0.165529750000000,Async Serial,0xA7
0.166153875000000,Async Serial,0x00
0.166414000000000,Async Serial,0x9D
0.166908125000000,Async Serial,0x00
0.167168250000000,Async Serial,0xA6
0.167688375000000,Async Serial,0x00
0.167948500000000,Async Serial,0xA3
0.168520625000000,Async Serial,0x00
0.168780625000000,Async Serial,0xA4
0.169300875000000,Async Serial,0x00
0.169560875000000,Async Serial,0xA2
0.170055000000000,Async Serial,0x00
0.170315125000000,Async Serial,0xA9
0.170835250000000,Async Serial,0x00
0.171095375000000,Async Serial,0xA9
0.171589500000000,Async Serial,0x00
0.171849625000000,Async Serial,0xA4
0.172343750000000,Async Serial,0x00
0.172603750000000,Async Serial,0xA3
0.173176000000000,Async Serial,0x00
0.173436000000000,Async Serial,0xA6
0.173956125000000,Async Serial,0x00
0.174216250000000,Async Serial,0xAD
0.174762375000000,Async Serial,0x00
0.175022500000000,Async Serial,0xA6
0.175542625000000,Async Serial,0x00
0.175802750000000,Async Serial,0xA7
0.176348875000000,Async Serial,0x00
0.176609000000000,Async Serial,0xAA
0.177155125000000,Async Serial,0x00
0.177415125000000,Async Serial,0xA7
0.177935375000000,Async Serial,0x00
0.178195375000000,Async Serial,0xAA
0.178793625000000,Async Serial,0x00
0.179053625000000,Async Serial,0xA6
0.179573750000000,Async Serial,0x00
0.179833875000000,Async Serial,0xA6
0.180406000000000,Async Serial,0x00
0.180666125000000,Async Serial,0xAB
0.181186250000000,Async Serial,0x00
0.181446375000000,Async Serial,0xA5
0.181940500000000,Async Serial,0x00
0.182200625000000,Async Serial,0xA8
0.182694750000000,Async Serial,0x00
0.182954750000000,Async Serial,0xA2
0.183527000000000,Async Serial,0x00
0.183787000000000,Async Serial,0xA3
0.184619250000000,Async Serial,0x00
0.184879375000000,Async Serial,0xB1
0.185399500000000,Async Serial,0x00
0.185659625000000,Async Serial,0xA7
0.186231750000000,Async Serial,0x00
0.186491750000000,Async Serial,0xA3
0.187038000000000,Async Serial,0x00
0.187298000000000,Async Serial,0xA9
0.187870250000000,Async Serial,0x00
0.188130250000000,Async Serial,0xA3
0.188650375000000,Async Serial,0x00
0.188910500000000,Async Serial,0xAC
0.189404625000000,Async Serial,0x00
0.189664750000000,Async Serial,0xA3
0.190184875000000,Async Serial,0x00
0.190445000000000,Async Serial,0xA6
0.190991125000000,Async Serial,0x00
0.191251125000000,Async Serial,0xA6
0.191797375000000,Async Serial,0x00
0.192057375000000,Async Serial,0xB0
0.192681625000000,Async Serial,0x00
0.192941625000000,Async Serial,0xAC
0.193487875000000,Async Serial,0x00
0.193747875000000,Async Serial,0xAD
0.194268000000000,Async Serial,0x00
0.194528125000000,Async Serial,0xAA
0.195074250000000,Async Serial,0x00
0.195334375000000,Async Serial,0xA5
0.196088625000000,Async Serial,0x00
0.196348625000000,Async Serial,0xB9
0.196842750000000,Async Serial,0x00
0.197102875000000,Async Serial,0xB2
0.197623000000000,Async Serial,0x00
0.197883125000000,Async Serial,0xB0
0.198637375000000,Async Serial,0x00
0.198897375000000,Async Serial,0xB5
0.199391500000000,Async Serial,0x00
0.199651625000000,Async Serial,0xB4
0.200171750000000,Async Serial,0x00
0.200431875000000,Async Serial,0xBA
0.200978000000000,Async Serial,0x00
0.201238125000000,Async Serial,0xB0
0.201758250000000,Async Serial,0x00
0.202018250000000,Async Serial,0xB3
0.202590500000000,Async Serial,0x00
0.202850500000000,Async Serial,0xB3
0.203344625000000,Async Serial,0x00
0.203604750000000,Async Serial,0xB6
0.204124875000000,Async Serial,0x00
0.204385000000000,Async Serial,0xBA
0.205087125000000,Async Serial,0x00
0.205347250000000,Async Serial,0xBB
0.206049500000000,Async Serial,0x00
0.206309500000000,Async Serial,0xB8
0.207141750000000,Async Serial,0x00
0.207401875000000,Async Serial,0xBB
0.207974000000000,Async Serial,0x00
0.208234125000000,Async Serial,0xB4
0.208728250000000,Async Serial,0x00
0.208988250000000,Async Serial,0xB2
0.209482500000000,Async Serial,0x00
0.209742500000000,Async Serial,0xB7
0.210262625000000,Async Serial,0x00
0.210522750000000,Async Serial,0xAE
0.211042875000000,Async Serial,0x00
0.211303000000000,Async Serial,0xC0
0.211823125000000,Async Serial,0x00
0.212083250000000,Async Serial,0xB6
0.212655375000000,Async Serial,0x00
0.212915500000000,Async Serial,0xBE
0.213617625000000,Async Serial,0x00
0.213877750000000,Async Serial,0xBB
0.214371875000000,Async Serial,0x00
0.214632000000000,Async Serial,0xBD
0.215204125000000,Async Serial,0x00
0.215464125000000,Async Serial,0xBA
0.216036375000000,Async Serial,0x00
0.216296375000000,Async Serial,0xB9
0.216816625000000,Async Serial,0x00
0.217076625000000,Async Serial,0xB9
0.217622750000000,Async Serial,0x00
0.217882875000000,Async Serial,0xB0
0.218403000000000,Async Serial,0x00
0.218663125000000,Async Serial,0xBB
0.219157250000000,Async Serial,0x00
0.219417375000000,Async Serial,0xB8
0.219963500000000,Async Serial,0x00
0.220223500000000,Async Serial,0xB7
0.220743750000000,Async Serial,0x00
0.221003750000000,Async Serial,0xBA
0.221550000000000,Async Serial,0x00
0.221810000000000,Async Serial,0xBC
0.222330125000000,Async Serial,0x00
0.222590250000000,Async Serial,0xBE
0.223188375000000,Async Serial,0x00
0.223448500000000,Async Serial,0xBD
0.223942625000000,Async Serial,0x00
0.224202750000000,Async Serial,0xC9
0.224774875000000,Async Serial,0x00
0.225035000000000,Async Serial,0xC1
0.225529125000000,Async Serial,0x00
0.225789125000000,Async Serial,0xC0
0.226283250000000,Async Serial,0x00
0.226543375000000,Async Serial,0xC6
0.227141500000000,Async Serial,0x00
0.227401625000000,Async Serial,0xC2
0.227973750000000,Async Serial,0x00
0.228233875000000,Async Serial,0xC0
0.228728000000000,Async Serial,0x00
0.228988125000000,Async Serial,0xCC
0.229664250000000,Async Serial,0x00
0.229924375000000,Async Serial,0xC6
0.230496500000000,Async Serial,0x00
0.230756625000000,Async Serial,0xC9
0.231250750000000,Async Serial,0x00
0.231510875000000,Async Serial,0xD5
0.232005000000000,Async Serial,0x00
0.232265000000000,Async Serial,0xCF
0.232785250000000,Async Serial,0x00
0.233045250000000,Async Serial,0xD0
0.233539375000000,Async Serial,0x00
0.233799500000000,Async Serial,0xD8
0.234397625000000,Async Serial,0x00
0.234657750000000,Async Serial,0xDA
0.235229875000000,Async Serial,0x00
0.235490000000000,Async Serial,0xD7
0.236088125000000,Async Serial,0x00
0.236348250000000,Async Serial,0xE1
0.236946375000000,Async Serial,0x00
0.237206500000000,Async Serial,0xE0
0.237804625000000,Async Serial,0x00
0.238064750000000,Async Serial,0xE6
0.238558875000000,Async Serial,0x00
0.238818875000000,Async Serial,0xE9
0.239313125000000,Async Serial,0x00
0.239573125000000,Async Serial,0xE2
0.240119250000000,Async Serial,0x00
0.240379375000000,Async Serial,0xE6
0.240977500000000,Async Serial,0x00
0.241237625000000,Async Serial,0xE3
0.241731750000000,Async Serial,0x00
0.241991875000000,Async Serial,0xE5
0.242512000000000,Async Serial,0x00
0.242772125000000,Async Serial,0xE7
0.243266250000000,Async Serial,0x00
0.243526250000000,Async Serial,0xFC
0.244124500000000,Async Serial,0x00
0.244384500000000,Async Serial,0xEA
0.244930750000000,Async Serial,0x00
0.245190750000000,Async Serial,0xE9
0.245763000000000,Async Serial,0x00
0.246023000000000,Async Serial,0xF5
0.246569125000000,Async Serial,0x00
0.246829250000000,Async Serial,0xFF
0.247349375000000,Async Serial,0x01
0.247609500000000,Async Serial,0x05
0.248155625000000,Async Serial,0x01
0.248415750000000,Async Serial,0x01
0.248935875000000,Async Serial,0x01
0.249195875000000,Async Serial,0x03
0.249690125000000,Async Serial,0x01
0.249950125000000,Async Serial,0x08
0.250444250000000,Async Serial,0x01
0.250704375000000,Async Serial,0x0B
0.251198500000000,Async Serial,0x01
0.251458625000000,Async Serial,0x0A
0.252004750000000,Async Serial,0x01
0.252264875000000,Async Serial,0x0A
0.252811000000000,Async Serial,0x01
0.253071000000000,Async Serial,0x0D
0.253669250000000,Async Serial,0x01
0.253929250000000,Async Serial,0x11
0.254605500000000,Async Serial,0x01
0.254865625000000,Async Serial,0x25
0.255541750000000,Async Serial,0x01
0.255801875000000,Async Serial,0x47
0.256296000000000,Async Serial,0x01
0.256556125000000,Async Serial,0x19
0.257050250000000,Async Serial,0x01
0.257310250000000,Async Serial,0x41
0.257908500000000,Async Serial,0x01
0.258168500000000,Async Serial,0x64
0.258740750000000,Async Serial,0x01
0.259000750000000,Async Serial,0x5C
0.259520875000000,Async Serial,0x01
0.259781000000000,Async Serial,0x6B
0.260327125000000,Async Serial,0x01
0.260587250000000,Async Serial,0x7B
0.261133375000000,Async Serial,0x01
0.261393500000000,Async Serial,0x79
0.261887625000000,Async Serial,0x01
0.262147625000000,Async Serial,0x72
0.262797875000000,Async Serial,0x01
0.263058000000000,Async Serial,0x7B
0.263578125000000,Async Serial,0x01
0.263838125000000,Async Serial,0xC3
0.264358375000000,Async Serial,0x01
0.264618375000000,Async Serial,0xB6
0.265112500000000,Async Serial,0x01
0.265372625000000,Async Serial,0xCE
0.265944750000000,Async Serial,0x01
0.266204875000000,Async Serial,0xA0
0.266699000000000,Async Serial,0x01
0.266959125000000,Async Serial,0xCE
0.267453250000000,Async Serial,0x01
0.267713250000000,Async Serial,0xD5
0.268207375000000,Async Serial,0x01
0.268467500000000,Async Serial,0xD0
0.268961625000000,Async Serial,0x01
0.269221750000000,Async Serial,0xD8
0.269715875000000,Async Serial,0x01
0.269976000000000,Async Serial,0xD6
0.270522125000000,Async Serial,0x01
0.270782125000000,Async Serial,0xD8
0.271302375000000,Async Serial,0x01
0.271562375000000,Async Serial,0xCF
0.272082500000000,Async Serial,0x01
0.272342625000000,Async Serial,0xC3
0.272914750000000,Async Serial,0x01
0.273174875000000,Async Serial,0xC1
0.273669000000000,Async Serial,0x01
0.273929125000000,Async Serial,0xC3
0.274423250000000,Async Serial,0x01
0.274683250000000,Async Serial,0xC3
0.275177500000000,Async Serial,0x01
0.275437500000000,Async Serial,0x97
0.275957625000000,Async Serial,0x01
0.276217750000000,Async Serial,0x8E
0.276737875000000,Async Serial,0x01
0.276998000000000,Async Serial,0x75
0.277492125000000,Async Serial,0x01
0.277752250000000,Async Serial,0x8D
0.278272375000000,Async Serial,0x01
0.278532375000000,Async Serial,0x55
0.279026500000000,Async Serial,0x01
0.279286625000000,Async Serial,0x6A
0.279988875000000,Async Serial,0x01
0.280248875000000,Async Serial,0x83
0.280769125000000,Async Serial,0x01
0.281029125000000,Async Serial,0x46
0.281549250000000,Async Serial,0x01
0.281809375000000,Async Serial,0x32
0.282537625000000,Async Serial,0x01
0.282797625000000,Async Serial,0x1D
0.283369875000000,Async Serial,0x01
